T92B0 000:000.653   SEGGER J-Link V7.94g Log File
T92B0 000:000.813   DLL Compiled: Jan 24 2024 15:48:08
T92B0 000:000.820   Logging started @ 2024-04-24 08:12
T92B0 000:000.827   Process: C:\Work_related\e2_fsp_download_location\.eclipse\com.renesas.platform_1053977661\DebugComp\RA\e2-server-gdb.exe
T92B0 000:000.837 - 0.834ms
T92B0 000:000.852 JLINK_GetDLLVersion()
T92B0 000:000.859 - 0.007ms returns 79407
T92B0 000:001.522 JLINK_OpenEx(...)
T92B0 000:061.596   Firmware: J-Link OB-S124 compiled Dec 13 2023 14:39:54
T92B0 000:062.854   Firmware: J-Link OB-S124 compiled Dec 13 2023 14:39:54
T92B0 000:087.924   Hardware: V1.00
T92B0 000:087.961   S/N: 831004793
T92B0 000:087.972   OEM: SEGGER
T92B0 000:087.983   Feature(s): None
T92B0 000:089.522   Bootloader: 2017 Feb 06
T92B0 000:107.761   USB speed mode: Full speed (12 MBit/s)
T92B0 000:108.807   TELNET listener socket opened on port 19021
T92B0 000:109.017   WEBSRV WEBSRV_Init(): Starting webserver thread(s)
T92B0 000:109.139   WEBSRV Failed to put socket into listener state (port 19080)
T92B0 000:109.167   WEBSRV Failed to put socket into listener state (port 19081)
T92B0 000:109.295   WEBSRV Webserver running on local port 19082
T92B0 000:109.467   Looking for J-Link GUI Server exe at: C:\Work_related\e2_fsp_download_location\.eclipse\com.renesas.platform_1053977661\DebugComp\RA\ARM\Segger_v7.94.7\JLinkGUIServer.exe
T92B0 000:109.584   Looking for J-Link GUI Server exe at: C:\Program Files\SEGGER\JLink\JLinkGUIServer.exe
T92B0 000:109.619   Forking J-Link GUI Server: C:\Program Files\SEGGER\JLink\JLinkGUIServer.exe
T92B0 000:115.765   J-Link GUI Server info: "J-Link GUI server V7.88j "
T92B0 000:116.878 - 115.352ms returns "O.K."
T92B0 000:117.067 JLINK_ExecCommand("ProjectFile=C:\Workspace_Aevice\workspace_fsp_IRQ_example_EKRA2A1_self\mmp/mmp Debug.jlink", ...). 
T92B0 000:142.710 - 25.641ms returns 0x00
T92B0 000:143.194 JLINK_ExecCommand("device=R7FA2A1AB", ...). 
T92B0 000:144.559   Flash bank @ 0x01010008: SFL: Parsing sectorization info from ELF file
T92B0 000:144.579     FlashDevice.SectorInfo[0]: .SectorSize = 0x0000002C, .SectorStartAddr = 0x00000000
T92B0 000:144.589   FlashBank @0x01010008: Sectorization info from SFL ELF file ignored because sectorization override from DLL / XML file is active.
T92B0 000:144.896   Device "R7FA2A1AB" selected.
T92B0 000:145.254 - 2.042ms returns 0x00
T92B0 000:145.299 JLINK_ExecCommand("SetCPUConnectIDCODE = FFFFFFFFFFFFFFFFFFFFFFFFFFFFFFFF", ...). 
T92B0 000:145.313 - 0.004ms returns 0x00
T92B0 000:145.321 JLINK_TIF_GetAvailable(...)
T92B0 000:178.718 - 33.395ms
T92B0 000:178.806 JLINK_TIF_Select(JLINKARM_TIF_SWD)
T92B0 000:180.461 - 1.654ms returns 0x00
T92B0 000:180.521 JLINK_SetSpeed(4000)
T92B0 000:180.756 - 0.235ms
T92B0 000:180.813 JLINK_SetEndian(ARM_ENDIAN_LITTLE)
T92B0 000:180.820 - 0.006ms returns 0
T92B0 000:180.830 JLINK_SetInitRegsOnReset(OFF)
T92B0 000:180.836 - 0.005ms returns 1
T92B0 000:180.842 JLINK_SetResetType(JLINKARM_RESET_TYPE_NORMAL)
T92B0 000:180.848 - 0.005ms returns JLINKARM_RESET_TYPE_NORMAL
T92B0 000:180.855 JLINK_ExecCommand("EnableFlashBPs", ...). 
T92B0 000:180.863 - 0.000ms returns 0x00
T92B0 000:180.870 JLINK_ExecCommand("SetAllowFlashCache = 1", ...). 
T92B0 000:180.877 - 0.000ms returns 0x01
T92B0 000:180.884 JLINK_ExecCommand("SetRestartOnClose = 0", ...). 
T92B0 000:180.891 - 0.001ms returns 0x01
T92B0 000:180.899 JLINK_EnableSoftBPs(ON)
T92B0 000:180.903 - 0.004ms
T92B0 000:180.911 JLINK_Connect()
T92B0 000:181.347   InitTarget() start
T92B0 000:181.364    J-Link Script File: Executing InitTarget()
T92B0 000:181.388   Identifying target device...
T92B0 000:181.397   SWD selected. Executing JTAG -> SWD switching sequence...
T92B0 000:182.357   Initializing DAP...
T92B0 000:185.234   DAP initialized successfully.
T92B0 000:193.196   InitTarget() end - Took 11.8ms
T92B0 000:194.380   Found SW-DP with ID 0x5BA02477
T92B0 000:199.459   DPIDR: 0x5BA02477
T92B0 000:199.476   CoreSight SoC-400 or earlier
T92B0 000:199.484   Scanning AP map to find all available APs
T92B0 000:201.897   AP[2]: Stopped AP scan as end of AP map has been reached
T92B0 000:201.910   AP[0]: AHB-AP (IDR: 0x74770001)
T92B0 000:201.919   AP[1]: APB-AP (IDR: 0x44770002)
T92B0 000:201.928   Iterating through AP map to find AHB-AP to use
T92B0 000:203.771   AP[0]: Core found
T92B0 000:203.790   AP[0]: AHB-AP ROM base: 0x4001A000
T92B0 000:204.824   CPUID register: 0x411CD200. Implementer code: 0x41 (ARM)
T92B0 000:204.834   Feature set: Baseline
T92B0 000:205.775   Cache: No cache
T92B0 000:205.787   Found Cortex-M23 r1p0, Little endian.
T92B0 000:206.783   -- Max. mem block: 0x000003E8
T92B0 000:209.056   CPU_ReadMem(4 bytes @ 0xE000EDF0)
T92B0 000:210.076   CPU_ReadMem(4 bytes @ 0xE0002000)
T92B0 000:210.901   FPUnit: 4 code (BP) slots and 0 literal slots
T92B0 000:210.917   CPU_ReadMem(4 bytes @ 0xE000EDFC)
T92B0 000:211.950   CPU_ReadMem(4 bytes @ 0xE0001000)
T92B0 000:213.317   CPU_ReadMem(4 bytes @ 0xE0001000)
T92B0 000:214.375   CPU_ReadMem(4 bytes @ 0xE0001028)
T92B0 000:215.366   CPU_ReadMem(4 bytes @ 0xE0001038)
T92B0 000:216.358   CPU_WriteMem(4 bytes @ 0xE0001000)
T92B0 000:217.418   CPU_ReadMem(4 bytes @ 0xE000ED88)
T92B0 000:218.504   CPU_WriteMem(4 bytes @ 0xE000ED88)
T92B0 000:219.509   CPU_ReadMem(4 bytes @ 0xE000ED88)
T92B0 000:220.507   CPU_WriteMem(4 bytes @ 0xE000ED88)
T92B0 000:221.539   CPU_ReadMem(4 bytes @ 0xE000EFB8)
T92B0 000:222.492   Security extension: not implemented
T92B0 000:222.531   CoreSight components:
T92B0 000:222.564   ROMTbl[0] @ 4001A000
T92B0 000:222.582   CPU_ReadMem(64 bytes @ 0x4001A000)
T92B0 000:224.286   CPU_ReadMem(32 bytes @ 0xE000EFE0)
T92B0 000:225.469   CPU_ReadMem(4 bytes @ 0xE000EFBC)
T92B0 000:226.641   CPU_ReadMem(4 bytes @ 0xE000EFCC)
T92B0 000:227.593   [0][0]: E000E000 CID B105900D PID 000BBD20 DEVARCH 47702A04 DEVTYPE 00 Cortex-M23
T92B0 000:227.638   CPU_ReadMem(32 bytes @ 0xE0001FE0)
T92B0 000:228.791   CPU_ReadMem(4 bytes @ 0xE0001FBC)
T92B0 000:229.719   CPU_ReadMem(4 bytes @ 0xE0001FCC)
T92B0 000:230.599   [0][1]: E0001000 CID B105900D PID 000BBD20 DEVARCH 47701A02 DEVTYPE 00 DWT
T92B0 000:230.641   CPU_ReadMem(32 bytes @ 0xE0002FE0)
T92B0 000:231.870   CPU_ReadMem(4 bytes @ 0xE0002FBC)
T92B0 000:232.779   CPU_ReadMem(4 bytes @ 0xE0002FCC)
T92B0 000:233.782   [0][2]: E0002000 CID B105900D PID 000BBD20 DEVARCH 47701A03 DEVTYPE 00 FPB
T92B0 000:233.819   CPU_ReadMem(32 bytes @ 0x40019FE0)
T92B0 000:235.466   CPU_ReadMem(4 bytes @ 0x40019FBC)
T92B0 000:236.531   CPU_ReadMem(4 bytes @ 0x40019FCC)
T92B0 000:237.853   [0][3]: 40019000 CID B105900D PID 000BBD20 DEVARCH 47710A31 DEVTYPE 31 MTB
T92B0 000:237.931 - 57.020ms returns 0x00
T92B0 000:238.036 JLINK_Halt()
T92B0 000:244.565 - 6.527ms returns 0x00
T92B0 000:244.656 JLINK_IsHalted()
T92B0 000:244.685 - 0.028ms returns TRUE
T92B0 000:244.706 JLINK_ResetPullsRESET(ON)
T92B0 000:244.723 - 0.016ms
T92B0 000:245.431 JLINK_Reset()
T92B0 000:301.775   CPU_WriteMem(4 bytes @ 0xE000EDF0)
T92B0 000:303.237   CPU_ReadMem(4 bytes @ 0xE000ED44)
T92B0 000:304.096   CPU_WriteMem(4 bytes @ 0xE000EDFC)
T92B0 000:304.971   Reset: Halt core after reset via DEMCR.VC_CORERESET.
T92B0 000:306.065   Reset: Reset device via AIRCR.SYSRESETREQ.
T92B0 000:306.073   CPU_WriteMem(4 bytes @ 0xE000ED0C)
T92B0 000:366.845   CPU_ReadMem(4 bytes @ 0xE000EDF0)
T92B0 000:367.661   CPU_ReadMem(4 bytes @ 0xE000EDF0)
T92B0 000:368.434   CPU_WriteMem(4 bytes @ 0xE000EDFC)
T92B0 000:375.592   CPU_ReadMem(4 bytes @ 0xE000EDF0)
T92B0 000:382.129   CPU_ReadMem(4 bytes @ 0xE000EE08)
T92B0 000:383.005   CPU_WriteMem(4 bytes @ 0xE0002000)
T92B0 000:383.902   CPU_ReadMem(4 bytes @ 0xE000EDFC)
T92B0 000:384.757   CPU_ReadMem(4 bytes @ 0xE0001000)
T92B0 000:385.603   CPU_WriteMem(4 bytes @ 0xE0001000)
T92B0 000:386.513   CPU_ReadMem(4 bytes @ 0xE000EE08)
T92B0 000:387.550 - 142.118ms
T92B0 000:387.653 JLINK_ReadMemEx(0x407FB19C, 0x8 Bytes, Flags = 0x00000004)
T92B0 000:387.677   CPU_ReadMem(8 bytes @ 0x407FB19C)
T92B0 000:388.600   Data:  00 3C 00 01 00 00 00 00
T92B0 000:388.628 - 0.974ms returns 8 (0x8)
T92B0 000:388.700 JLINK_ReadMem(0x01003C24, 0x10 Bytes, ...)
T92B0 000:388.716   CPU_ReadMem(16 bytes @ 0x01003C24)
T92B0 000:440.382   Data:  52 37 46 41 32 41 31 41 42 33 43 46 4D 20 20 20
T92B0 000:440.404 - 51.703ms returns 0
T92B0 000:440.458 JLINK_IsHalted()
T92B0 000:440.467 - 0.008ms returns TRUE
T92B0 000:440.718 JLINK_MeasureCPUSpeed(RAMAddr = 0xFFFFFFFF)
T92B0 000:440.734   CPU_ReadMem(16 bytes @ 0x20000000)
T92B0 000:441.654   CPU_ReadMem(64 bytes @ 0x20000000)
T92B0 000:443.232    -- Updating C cache (64 bytes @ 0x20000000)
T92B0 000:443.248    -- Read from C cache (6 bytes @ 0x20000000)
T92B0 000:443.257   CPU_ReadMem(4 bytes @ 0x40019004)
T92B0 000:443.996   CPU_ReadMem(4 bytes @ 0xE000ED90)
T92B0 000:445.034   CPU_ReadMem(4 bytes @ 0xE000ED94)
T92B0 000:445.726   CPU_WriteMem(16 bytes @ 0x20000000)
T92B0 000:446.797   CPU_WriteMem(6 bytes @ 0x20000000)
T92B0 000:447.737   CPU_ReadMem(64 bytes @ 0x20000000)
T92B0 000:449.252    -- Updating C cache (64 bytes @ 0x20000000)
T92B0 000:449.259    -- Read from C cache (6 bytes @ 0x20000000)
T92B0 000:449.269   CPU_ReadMem(4 bytes @ 0xE000EE08)
T92B0 000:450.116   CPU_WriteMem(4 bytes @ 0xE0002008)
T92B0 000:450.123   CPU_WriteMem(4 bytes @ 0xE000200C)
T92B0 000:450.129   CPU_WriteMem(4 bytes @ 0xE0002010)
T92B0 000:450.135   CPU_WriteMem(4 bytes @ 0xE0002014)
T92B0 000:461.769   CPU_WriteMem(4 bytes @ 0xE0002008)
T92B0 000:462.626   CPU_WriteMem(4 bytes @ 0xE000200C)
T92B0 000:463.461   CPU_WriteMem(4 bytes @ 0xE0002010)
T92B0 000:464.379   CPU_WriteMem(4 bytes @ 0xE0002014)
T92B0 000:465.301   CPU_ReadMem(4 bytes @ 0xE000EE08)
T92B0 000:466.024   CPU_ReadMem(4 bytes @ 0xE000EE08)
T92B0 000:466.744   CPU_ReadMem(4 bytes @ 0xE000EE08)
T92B0 000:496.548   CPU_WriteMem(6 bytes @ 0x20000000)
T92B0 000:497.392   ClockFreq: 516450 Hz
T92B0 000:497.415 - 56.696ms returns 516450
T92B0 000:497.461 JLINK_ReadReg(XPSR)
T92B0 000:497.477   CPU_ReadMem(4 bytes @ 0xE000EE08)
T92B0 000:498.208 - 0.746ms returns 0x61000000
T8860 002:609.524 JLINK_ReadReg(XPSR)
T8860 002:636.160   CPU_ReadMem(4 bytes @ 0xE000EE08)
T8860 002:637.333 - 27.807ms returns 0x61000000
T8860 002:665.478 JLINK_ReadReg(XPSR)
T8860 002:665.524 - 0.045ms returns 0x61000000
T8860 002:666.754 JLINK_ReadReg(XPSR)
T8860 002:666.787 - 0.032ms returns 0x61000000
T8860 002:867.175 JLINK_BeginDownload(Flags = 0x00000000)
T8860 002:867.216 - 0.041ms
T8860 002:886.416 JLINK_WriteMem(0x00000000, 0xBC0 Bytes, ...)
T8860 002:886.441   Data:  40 0C 00 20 D5 13 00 00 A9 11 00 00 D1 13 00 00 ...
T8860 002:886.951   completely In flash
T8860 002:886.973 - 0.558ms returns 0xBC0
T8860 002:887.687 JLINK_WriteMem(0x00000BC0, 0xBB0 Bytes, ...)
T8860 002:887.705   Data:  F7 E6 FB 07 AA D5 0A 9B 00 2B 00 DB 64 E7 1F 00 ...
T8860 002:887.725   completely In flash
T8860 002:887.738 - 0.052ms returns 0xBB0
T8860 002:888.119 JLINK_WriteMem(0x00001770, 0xB90 Bytes, ...)
T8860 002:888.132   Data:  31 78 01 3B 00 29 ED D1 A3 60 00 2B 0F DA 22 00 ...
T8860 002:888.158   completely In flash
T8860 002:888.190 - 0.071ms returns 0xB90
T8860 002:888.449 JLINK_WriteMem(0x00002300, 0x340 Bytes, ...)
T8860 002:888.463   Data:  F0 B5 26 4B 85 B0 01 93 00 25 03 23 01 AC A3 60 ...
T8860 002:888.474   completely In flash
T8860 002:888.482 - 0.033ms returns 0x340
T8860 002:888.755 JLINK_WriteMem(0x00002640, 0x6C Bytes, ...)
T8860 002:888.769   Data:  00 00 00 00 03 00 00 00 44 06 00 20 10 00 00 20 ...
T8860 002:888.779   completely In flash
T8860 002:888.787 - 0.033ms returns 0x6C
T8860 002:889.116 JLINK_WriteMem(0x01010018, 0x1C Bytes, ...)
T8860 002:889.130   Data:  FF FF FF FF FF FF FF FF FF FF FF FF FF FF FF FF ...
T8860 002:889.492   completely In flash
T8860 002:889.502 - 0.386ms returns 0x1C
T8860 002:914.721 JLINK_EndDownload()
T8860 002:916.335   CPU_ReadMem(4 bytes @ 0x40019004)
T8860 002:917.161   CPU_ReadMem(4 bytes @ 0xE000ED90)
T8860 002:918.028   CPU_ReadMem(4 bytes @ 0xE000ED94)
T8860 002:918.894    -- --------------------------------------
T8860 002:918.933    -- Start of determining flash info (Bank @ 0x01010008)
T8860 002:918.948    -- End of determining flash info
T8860 002:918.959    -- Start of determining dirty areas in flash cache
T8860 002:918.973    -- Filling invalid ranges in sector buffer (flash cache) for sector @ 0x01010008 if necessary
T8860 002:918.992    -- End of determining dirty areas
T8860 002:919.005    -- Start of preparing flash programming
T8860 002:919.022    -- Preparing RAMCode
T8860 002:919.033    -- Calculating RAM usage
T8860 002:919.045    -- RAM usage = 4512 Bytes
T8860 002:919.056    -- Preserving CPU registers
T8860 002:919.104    -- Preparing memory
T8860 002:919.115    -- Determining CPU clock frequency
T8860 002:969.768    -- CPU frequency = 516 kHz
T8860 002:969.814    -- Preparing target
T8860 002:969.823    -- Preserving target RAM temporarily used for programming
T8860 003:025.210    -- Downloading RAMCode
T8860 003:094.054    -- Initializing RAMCode (InitType: 3 = Verify)
T8860 003:094.092    -- Executing Init(3)
T8860 003:120.233    -- End of preparing flash programming
T8860 003:124.473   
  ***** Warning: 
T8860 003:124.516   CPU is running at very low speed (516 kHz). Readback will be performed instead of CRC calculation.
T8860 003:124.528    -- CPU is running at 516 kHz.
T8860 003:124.543    -- Start of comparing flash
T8860 003:124.555    -- Flash algorithm supports a native verify function which is used to compare the flash content.
T8860 003:145.656    -- Comparing range 0x1010008 - 0x1010033 (1 Sector, 44 Bytes), using verify function of the RAMCode
T8860 003:148.713    -- Data matches for sector 0
T8860 003:148.744    -- End of comparing flash
T8860 003:148.755    -- Start of erasing sectors
T8860 003:148.764    -- End of erasing sectors
T8860 003:148.772    -- Start of flash programming
T8860 003:148.781    -- End of flash programming
T8860 003:148.790    -- Start of verifying flash
T8860 003:148.799    -- End of verifying flash
T8860 003:148.808    -- Start of restoring
T8860 003:148.819    -- Executing UnInit()
T8860 003:157.683    -- Restoring target memory
T8860 003:206.781    -- Restoring CPU registers
T8860 003:208.135    -- End of restoring
T8860 003:208.187    -- Bank 0 @ 0x01010008: Skipped. Contents already match
T8860 003:208.204    -- Bank 0 @ 0x01010008: Skipped. Contents already match
T8860 003:213.085    -- --------------------------------------
T8860 003:213.265    -- Flash bank @ 0x00000000: Default: L2 verify disabled because algorithm performs L1 verify
T8860 003:213.283    -- Start of determining dirty areas in flash cache
T8860 003:213.302    -- Filling invalid ranges in sector buffer (flash cache) for sector @ 0x00000000 if necessary
T8860 003:213.370    -- Filling invalid ranges in sector buffer (flash cache) for sector @ 0x00000800 if necessary
T8860 003:213.388    -- Filling invalid ranges in sector buffer (flash cache) for sector @ 0x00001000 if necessary
T8860 003:213.405    -- Filling invalid ranges in sector buffer (flash cache) for sector @ 0x00001800 if necessary
T8860 003:213.421    -- Filling invalid ranges in sector buffer (flash cache) for sector @ 0x00002000 if necessary
T8860 003:213.513    -- End of determining dirty areas
T8860 003:213.530    -- Start of preparing flash programming
T8860 003:213.548    -- Calculating RAM usage
T8860 003:213.760    -- RAM usage = 3300 Bytes
T8860 003:213.781    -- Preserving CPU registers
T8860 003:213.847    -- Determining CPU clock frequency
T8860 003:266.233    -- Preparing target
T8860 003:279.139    -- Preserving target RAM temporarily used for programming
T8860 003:319.709    -- Downloading RAMCode
T8860 003:363.185    -- Preparing RAMCode
T8860 003:384.132    -- CPU frequency = 8000 kHz
T8860 003:384.156    -- End of preparing flash programming
T8860 003:385.503   
  ***** Warning: 
T8860 003:385.524   CPU is running at low speed (8000 kHz).
T8860 003:385.532    -- CPU is running at 8000 kHz.
T8860 003:385.541    -- Start of comparing flash
T8860 003:385.607    -- CRC check was estimated as fastest method
T8860 003:400.508    -- Comparing range 0x0000 - 0x27FF (5 Sectors, 10 KB), using multi-block CRC calculation
T8860 003:427.089    -- All CRCs match
T8860 003:427.933    -- Comparing range 0x0000 - 0x27FF (5 Sectors, 10 KB), using alternative multi-block CRC calculation
T8860 003:456.021    -- All CRCs match
T8860 003:456.051    -- End of comparing flash
T8860 003:456.059    -- Start of erasing sectors
T8860 003:456.065    -- End of erasing sectors
T8860 003:456.072    -- Start of flash programming
T8860 003:456.078    -- End of flash programming
T8860 003:456.084    -- Start of restoring
T8860 003:456.091    -- Restoring RAMCode
T8860 003:464.010    -- Restoring target memory
T8860 003:499.902    -- Restore target
T8860 003:506.500    -- Restoring CPU registers
T8860 003:507.575    -- End of restoring
T8860 003:507.622    -- Bank 1 @ 0x00000000: Skipped. Contents already match
T8860 003:507.639    -- Bank 1 @ 0x00000000: Skipped. Contents already match
T8860 003:513.999 - 599.276ms returns 0 (0x0)
T8860 003:567.246 JLINK_WriteReg(R15 (PC), 0x000013D4)
T8860 003:567.314 - 0.068ms returns 0
T8860 003:567.324 JLINK_WriteReg(XPSR, 0x01000000)
T8860 003:567.330 - 0.006ms returns 0
T8860 003:567.953 JLINK_SetEndian(ARM_ENDIAN_LITTLE)
T8860 003:567.970 - 0.017ms returns 0
T8860 003:590.888 JLINK_ReadReg(XPSR)
T8860 003:590.922 - 0.033ms returns 0x01000000
T8860 003:591.425 JLINK_ReadMem(0x000013D4, 0x4 Bytes, ...)
T8860 003:591.448    -- Read from flash cache (4 bytes @ 0x000013D4)
T8860 003:591.458   Data:  10 B5 00 F0
T8860 003:591.467 - 0.042ms returns 0
T8860 003:601.931 JLINK_ReadReg(XPSR)
T8860 003:601.983 - 0.052ms returns 0x01000000
T8860 003:602.589 JLINK_ReadMem(0x000013D4, 0x4 Bytes, ...)
T8860 003:602.607    -- Read from flash cache (4 bytes @ 0x000013D4)
T8860 003:602.617   Data:  10 B5 00 F0
T8860 003:602.625 - 0.036ms returns 0
T8860 003:665.476 JLINK_ReadReg(XPSR)
T8860 003:665.523 - 0.047ms returns 0x01000000
T8860 003:767.526 JLINK_ReadRegs(NumRegs = 22, Indexes: 0, 1, 2, 3, 4, 5, 6, 7, 8, 9, 10, 11, 12, 13, 14, 15, 16, 17, 18, 86, 87, 20)
T8860 003:767.589    -- R0=0x3FFF, R1=0x40044400, R2=0x00, R3=0x00, R4=0x200007E4, R5=0x20000804, R6=0x20000804, R7=0x01, R8=0x00, R9=0x20000C04, R10=0x20000B98, R11=0x01, R12=0x20000768, R13 (SP)=0x20000C40, R14=0x2000032F, R15 (PC)=0x13D4, XPSR=0x1000000, MSP=0x20000C40, PSP=0xB0602108, MSPLIM=0x00, PSPLIM=0x00, CFBP=0x00
T8860 003:767.600 - 0.073ms returns 0x00
T8860 003:767.917 JLINK_ReadReg(XPSR)
T8860 003:796.118 - 28.200ms returns 0x01000000
T8860 003:797.042 JLINK_ReadMem(0x000013D4, 0x4 Bytes, ...)
T8860 003:797.070    -- Read from flash cache (4 bytes @ 0x000013D4)
T8860 003:797.081   Data:  10 B5 00 F0
T8860 003:797.091 - 0.049ms returns 0
T8860 003:800.759 JLINK_ReadMem(0x000013D4, 0x4 Bytes, ...)
T8860 003:800.785    -- Read from flash cache (4 bytes @ 0x000013D4)
T8860 003:800.793   Data:  10 B5 00 F0
T8860 003:800.800 - 0.041ms returns 0
T91A4 003:810.789 JLINK_GetNumBPUnits(Type = 0xFFFFFF00)
T91A4 003:810.811 - 0.021ms returns 0x04
T91A4 003:810.816 JLINK_GetNumWPUnits()
T91A4 003:810.820 - 0.004ms returns 2
T91A4 003:810.825 JLINK_GetNumWPUnits()
T91A4 003:810.829 - 0.004ms returns 2
T91A4 003:811.030 JLINK_GetNumBPUnits(Type = 0xFFFFFF00)
T91A4 003:811.046 - 0.016ms returns 0x04
T91A4 003:811.054 JLINK_GetNumWPUnits()
T91A4 003:811.060 - 0.006ms returns 2
T91A4 003:811.067 JLINK_GetNumWPUnits()
T91A4 003:811.073 - 0.005ms returns 2
T91A4 003:811.253 JLINK_GetNumBPUnits(Type = 0xFFFFFF00)
T91A4 003:811.269 - 0.015ms returns 0x04
T91A4 003:811.275 JLINK_GetNumWPUnits()
T91A4 003:811.281 - 0.005ms returns 2
T91A4 003:811.286 JLINK_GetNumWPUnits()
T91A4 003:811.291 - 0.004ms returns 2
T91A4 003:812.241 JLINK_GetNumBPUnits(Type = 0xFFFFFF00)
T91A4 003:812.257 - 0.016ms returns 0x04
T91A4 003:812.293 JLINK_GetNumWPUnits()
T91A4 003:812.301 - 0.007ms returns 2
T91A4 003:812.308 JLINK_GetNumWPUnits()
T91A4 003:812.316 - 0.008ms returns 2
T91A4 003:813.443 JLINK_GetNumBPUnits(Type = 0xFFFFFF00)
T91A4 003:813.459 - 0.016ms returns 0x04
T91A4 003:813.467 JLINK_GetNumWPUnits()
T91A4 003:813.473 - 0.006ms returns 2
T91A4 003:813.481 JLINK_GetNumWPUnits()
T91A4 003:813.487 - 0.006ms returns 2
T91A4 003:813.890 JLINK_GetNumBPUnits(Type = 0xFFFFFF00)
T91A4 003:813.905 - 0.015ms returns 0x04
T91A4 003:813.923 JLINK_GetNumWPUnits()
T91A4 003:813.929 - 0.006ms returns 2
T91A4 003:813.936 JLINK_GetNumWPUnits()
T91A4 003:813.941 - 0.005ms returns 2
T91A4 003:814.110 JLINK_GetNumBPUnits(Type = 0xFFFFFF00)
T91A4 003:814.120 - 0.010ms returns 0x04
T91A4 003:814.126 JLINK_GetNumWPUnits()
T91A4 003:814.131 - 0.004ms returns 2
T91A4 003:814.137 JLINK_GetNumWPUnits()
T91A4 003:814.142 - 0.005ms returns 2
T91A4 003:814.376 JLINK_GetNumBPUnits(Type = 0xFFFFFF00)
T91A4 003:814.390 - 0.013ms returns 0x04
T91A4 003:814.395 JLINK_GetNumWPUnits()
T91A4 003:814.400 - 0.004ms returns 2
T91A4 003:814.405 JLINK_GetNumWPUnits()
T91A4 003:814.409 - 0.004ms returns 2
T8860 003:866.838 JLINK_ReadReg(XPSR)
T8860 003:866.884 - 0.046ms returns 0x01000000
T8860 003:867.707 JLINK_ReadReg(XPSR)
T8860 003:867.732 - 0.025ms returns 0x01000000
T8860 006:696.052 JLINK_STRACE_Read(..., NumItems = 0x10000)
T8860 006:710.857 - 14.804ms NumItemsRead = 0x00
T8860 006:710.941 JLINK_IsHalted()
T8860 006:711.679 - 0.736ms returns TRUE
T8860 006:711.747 JLINK_STRACE_Read(..., NumItems = 0x10000)
T8860 006:711.757 - 0.010ms NumItemsRead = 0x00
T8860 006:711.775 JLINK_GoEx(MaxEmulInsts = 0, Flags = 0x01)
T8860 006:711.799   CPU_ReadMem(4 bytes @ 0xE0001000)
T8860 006:718.678   Memory map 'after startup completion point' is active
T8860 006:718.714 - 6.938ms
T8860 006:826.861 JLINK_IsHalted()
T8860 006:833.432 - 6.568ms returns TRUE
T8860 006:833.564 JLINK_ReadReg(XPSR)
T8860 006:833.596   CPU_ReadMem(4 bytes @ 0xE000EE08)
T8860 006:834.770 - 1.204ms returns 0x01000000
T8860 006:834.880 JLINK_ReadReg(R15 (PC))
T8860 006:834.903 - 0.023ms returns 0x00002318
T8860 006:834.932 JLINK_ReadReg(XPSR)
T8860 006:834.943 - 0.011ms returns 0x01000000
T8860 006:834.955 JLINK_ReadReg(XPSR)
T8860 006:834.965 - 0.010ms returns 0x01000000
T8860 006:834.976 JLINK_ReadReg(R15 (PC))
T8860 006:834.986 - 0.010ms returns 0x00002318
T8860 006:834.997 JLINK_ReadReg(XPSR)
T8860 006:835.008 - 0.010ms returns 0x01000000
T8860 006:835.018 JLINK_ReadReg(XPSR)
T8860 006:835.029 - 0.010ms returns 0x01000000
T8860 006:835.041 JLINK_ReadMem(0x00002318, 0x1 Bytes, ...)
T8860 006:835.055    -- Read from flash cache (1 bytes @ 0x00002318)
T8860 006:835.070   Data:  AB
T8860 006:835.084 - 0.042ms returns 0
T8860 006:835.095 JLINK_ReadReg(XPSR)
T8860 006:835.105 - 0.010ms returns 0x01000000
T8860 006:835.116 JLINK_ReadReg(R0)
T8860 006:835.127 - 0.010ms returns 0x00000001
T8860 006:835.138 JLINK_ReadReg(XPSR)
T8860 006:835.148 - 0.010ms returns 0x01000000
T8860 006:835.159 JLINK_ReadReg(R1)
T8860 006:835.169 - 0.010ms returns 0x20000C04
T8860 006:835.181 JLINK_IsHalted()
T8860 006:835.191 - 0.009ms returns TRUE
T8860 006:835.202 JLINK_ReadReg(XPSR)
T8860 006:835.212 - 0.010ms returns 0x01000000
T8860 006:835.223 JLINK_ReadReg(XPSR)
T8860 006:835.233 - 0.010ms returns 0x01000000
T8860 006:835.244 JLINK_ReadReg(R15 (PC))
T8860 006:835.254 - 0.010ms returns 0x00002318
T8860 006:835.265 JLINK_ReadReg(XPSR)
T8860 006:835.275 - 0.010ms returns 0x01000000
T8860 006:835.286 JLINK_ReadReg(XPSR)
T8860 006:835.296 - 0.010ms returns 0x01000000
T8860 006:835.307 JLINK_ReadMem(0x00002318, 0x1 Bytes, ...)
T8860 006:835.317    -- Read from flash cache (1 bytes @ 0x00002318)
T8860 006:835.330   Data:  AB
T8860 006:835.343 - 0.036ms returns 0
T8860 006:835.354 JLINK_ReadReg(XPSR)
T8860 006:835.364 - 0.010ms returns 0x01000000
T8860 006:835.375 JLINK_ReadReg(R0)
T8860 006:835.385 - 0.010ms returns 0x00000001
T8860 006:835.396 JLINK_ReadReg(XPSR)
T8860 006:835.407 - 0.010ms returns 0x01000000
T8860 006:835.417 JLINK_ReadReg(R1)
T8860 006:835.427 - 0.010ms returns 0x20000C04
T8860 006:835.446 JLINK_ReadMem(0x20000C04, 0xC Bytes, ...)
T8860 006:835.462   CPU_ReadMem(64 bytes @ 0x20000C00)
T8860 006:837.165    -- Updating C cache (64 bytes @ 0x20000C00)
T8860 006:837.208    -- Read from C cache (12 bytes @ 0x20000C04)
T8860 006:837.226   Data:  36 26 00 00 00 00 00 00 03 00 00 00
T8860 006:837.242 - 1.795ms returns 0
T8860 006:837.301 JLINK_ReadMem(0x00002636, 0x3 Bytes, ...)
T8860 006:837.319    -- Read from flash cache (3 bytes @ 0x00002636)
T8860 006:837.338   Data:  3A 74 74
T8860 006:837.359 - 0.057ms returns 0
T8860 006:837.380 JLINK_WriteReg(R0, 0xFFFFFF00)
T8860 006:837.405 - 0.024ms returns 0
T8860 006:837.419 JLINK_ReadReg(XPSR)
T8860 006:837.431 - 0.012ms returns 0x01000000
T8860 006:837.443 JLINK_ReadReg(XPSR)
T8860 006:837.455 - 0.011ms returns 0x01000000
T8860 006:837.466 JLINK_ReadReg(R15 (PC))
T8860 006:837.478 - 0.011ms returns 0x00002318
T8860 006:837.491 JLINK_WriteReg(R15 (PC), 0x0000231A)
T8860 006:837.502 - 0.011ms returns 0
T8860 006:837.514 JLINK_IsHalted()
T8860 006:837.524 - 0.010ms returns TRUE
T8860 006:837.539 JLINK_STRACE_Read(..., NumItems = 0x10000)
T8860 006:837.553 - 0.013ms NumItemsRead = 0x00
T8860 006:837.569 JLINK_GoEx(MaxEmulInsts = 0, Flags = 0x01)
T8860 006:837.594   CPU_ReadMem(4 bytes @ 0xE0001000)
T8860 006:840.782 - 3.211ms
T8860 006:935.884 JLINK_IsHalted()
T8860 006:945.568 - 9.683ms returns TRUE
T8860 006:945.623 JLINK_ReadReg(XPSR)
T8860 006:945.643   CPU_ReadMem(4 bytes @ 0xE000EE08)
T8860 006:946.419 - 0.793ms returns 0x01000000
T8860 006:946.569 JLINK_ReadReg(R15 (PC))
T8860 006:946.593 - 0.023ms returns 0x000021B6
T8860 006:946.609 JLINK_ReadReg(XPSR)
T8860 006:946.619 - 0.010ms returns 0x01000000
T8860 006:946.628 JLINK_ReadReg(XPSR)
T8860 006:946.637 - 0.008ms returns 0x01000000
T8860 006:946.645 JLINK_ReadReg(R15 (PC))
T8860 006:946.653 - 0.007ms returns 0x000021B6
T8860 006:946.663 JLINK_ReadReg(XPSR)
T8860 006:946.671 - 0.008ms returns 0x01000000
T8860 006:946.680 JLINK_ReadReg(XPSR)
T8860 006:946.708 - 0.028ms returns 0x01000000
T8860 006:946.721 JLINK_ReadMem(0x000021B6, 0x1 Bytes, ...)
T8860 006:946.735    -- Read from flash cache (1 bytes @ 0x000021B6)
T8860 006:946.751   Data:  AB
T8860 006:946.765 - 0.044ms returns 0
T8860 006:946.773 JLINK_ReadReg(XPSR)
T8860 006:946.781 - 0.007ms returns 0x01000000
T8860 006:946.789 JLINK_ReadReg(R0)
T8860 006:946.797 - 0.008ms returns 0x00000001
T8860 006:946.806 JLINK_ReadReg(XPSR)
T8860 006:946.815 - 0.008ms returns 0x01000000
T8860 006:946.823 JLINK_ReadReg(R1)
T8860 006:946.831 - 0.008ms returns 0x20000B40
T8860 006:946.840 JLINK_IsHalted()
T8860 006:946.848 - 0.007ms returns TRUE
T8860 006:946.856 JLINK_ReadReg(XPSR)
T8860 006:946.864 - 0.008ms returns 0x01000000
T8860 006:946.873 JLINK_ReadReg(XPSR)
T8860 006:946.881 - 0.007ms returns 0x01000000
T8860 006:946.889 JLINK_ReadReg(R15 (PC))
T8860 006:946.898 - 0.008ms returns 0x000021B6
T8860 006:946.906 JLINK_ReadReg(XPSR)
T8860 006:946.915 - 0.008ms returns 0x01000000
T8860 006:946.923 JLINK_ReadReg(XPSR)
T8860 006:946.931 - 0.007ms returns 0x01000000
T8860 006:946.939 JLINK_ReadMem(0x000021B6, 0x1 Bytes, ...)
T8860 006:946.949    -- Read from flash cache (1 bytes @ 0x000021B6)
T8860 006:946.960   Data:  AB
T8860 006:946.970 - 0.031ms returns 0
T8860 006:946.979 JLINK_ReadReg(XPSR)
T8860 006:946.988 - 0.008ms returns 0x01000000
T8860 006:946.996 JLINK_ReadReg(R0)
T8860 006:947.005 - 0.008ms returns 0x00000001
T8860 006:947.014 JLINK_ReadReg(XPSR)
T8860 006:947.021 - 0.006ms returns 0x01000000
T8860 006:947.027 JLINK_ReadReg(R1)
T8860 006:947.033 - 0.006ms returns 0x20000B40
T8860 006:947.041 JLINK_ReadMem(0x20000B40, 0xC Bytes, ...)
T8860 006:947.052   CPU_ReadMem(64 bytes @ 0x20000B40)
T8860 006:948.520    -- Updating C cache (64 bytes @ 0x20000B40)
T8860 006:948.540    -- Read from C cache (12 bytes @ 0x20000B40)
T8860 006:948.549   Data:  20 26 00 00 00 00 00 00 15 00 00 00
T8860 006:948.557 - 1.515ms returns 0
T8860 006:948.586 JLINK_ReadMem(0x00002620, 0x15 Bytes, ...)
T8860 006:948.600    -- Read from flash cache (21 bytes @ 0x00002620)
T8860 006:948.608   Data:  3A 73 65 6D 69 68 6F 73 74 69 6E 67 2D 66 65 61 ...
T8860 006:948.615 - 0.029ms returns 0
T8860 006:948.626 JLINK_WriteReg(R0, 0xFFFFFFFF)
T8860 006:948.636 - 0.010ms returns 0
T8860 006:948.643 JLINK_ReadReg(XPSR)
T8860 006:948.649 - 0.006ms returns 0x01000000
T8860 006:948.656 JLINK_ReadReg(XPSR)
T8860 006:948.664 - 0.008ms returns 0x01000000
T8860 006:948.673 JLINK_ReadReg(R15 (PC))
T8860 006:948.679 - 0.006ms returns 0x000021B6
T8860 006:948.686 JLINK_WriteReg(R15 (PC), 0x000021B8)
T8860 006:948.691 - 0.006ms returns 0
T8860 006:948.698 JLINK_IsHalted()
T8860 006:948.703 - 0.005ms returns TRUE
T8860 006:948.712 JLINK_STRACE_Read(..., NumItems = 0x10000)
T8860 006:948.719 - 0.008ms NumItemsRead = 0x00
T8860 006:948.728 JLINK_GoEx(MaxEmulInsts = 0, Flags = 0x01)
T8860 006:948.738   CPU_ReadMem(4 bytes @ 0xE0001000)
T8860 006:951.532 - 2.803ms
T8860 007:061.548 JLINK_IsHalted()
T8860 007:066.820 - 5.270ms returns TRUE
T8860 007:066.906 JLINK_ReadReg(XPSR)
T8860 007:066.926   CPU_ReadMem(4 bytes @ 0xE000EE08)
T8860 007:067.631 - 0.724ms returns 0x41000000
T8860 007:067.694 JLINK_ReadReg(R15 (PC))
T8860 007:067.710 - 0.015ms returns 0x00001F12
T8860 007:067.724 JLINK_ReadReg(XPSR)
T8860 007:067.733 - 0.008ms returns 0x41000000
T8860 007:067.741 JLINK_ReadReg(XPSR)
T8860 007:067.748 - 0.007ms returns 0x41000000
T8860 007:067.755 JLINK_ReadReg(R15 (PC))
T8860 007:067.762 - 0.007ms returns 0x00001F12
T8860 007:067.770 JLINK_ReadReg(XPSR)
T8860 007:067.778 - 0.007ms returns 0x41000000
T8860 007:067.786 JLINK_ReadReg(XPSR)
T8860 007:067.794 - 0.007ms returns 0x41000000
T8860 007:067.803 JLINK_ReadMem(0x00001F12, 0x1 Bytes, ...)
T8860 007:067.813    -- Read from flash cache (1 bytes @ 0x00001F12)
T8860 007:067.823   Data:  AB
T8860 007:067.833 - 0.030ms returns 0
T8860 007:067.841 JLINK_ReadReg(XPSR)
T8860 007:067.850 - 0.008ms returns 0x41000000
T8860 007:067.858 JLINK_ReadReg(R0)
T8860 007:067.866 - 0.007ms returns 0x00000013
T8860 007:067.874 JLINK_ReadReg(XPSR)
T8860 007:067.882 - 0.007ms returns 0x41000000
T8860 007:067.890 JLINK_ReadReg(R1)
T8860 007:067.898 - 0.008ms returns 0x00000000
T8860 007:067.907 JLINK_IsHalted()
T8860 007:067.914 - 0.007ms returns TRUE
T8860 007:067.921 JLINK_ReadReg(XPSR)
T8860 007:067.929 - 0.008ms returns 0x41000000
T8860 007:067.937 JLINK_ReadReg(XPSR)
T8860 007:067.945 - 0.007ms returns 0x41000000
T8860 007:067.953 JLINK_ReadReg(R15 (PC))
T8860 007:067.961 - 0.007ms returns 0x00001F12
T8860 007:067.968 JLINK_ReadReg(XPSR)
T8860 007:067.976 - 0.007ms returns 0x41000000
T8860 007:067.984 JLINK_ReadReg(XPSR)
T8860 007:067.991 - 0.007ms returns 0x41000000
T8860 007:068.000 JLINK_ReadMem(0x00001F12, 0x1 Bytes, ...)
T8860 007:068.008    -- Read from flash cache (1 bytes @ 0x00001F12)
T8860 007:068.018   Data:  AB
T8860 007:068.028 - 0.028ms returns 0
T8860 007:068.036 JLINK_ReadReg(XPSR)
T8860 007:068.044 - 0.007ms returns 0x41000000
T8860 007:068.060 JLINK_ReadReg(R0)
T8860 007:068.068 - 0.008ms returns 0x00000013
T8860 007:068.077 JLINK_ReadReg(XPSR)
T8860 007:068.085 - 0.007ms returns 0x41000000
T8860 007:068.093 JLINK_ReadReg(R1)
T8860 007:068.101 - 0.007ms returns 0x00000000
T8860 007:068.111 JLINK_WriteReg(R0, 0x00000000)
T8860 007:068.119 - 0.008ms returns 0
T8860 007:068.128 JLINK_ReadReg(XPSR)
T8860 007:068.136 - 0.007ms returns 0x41000000
T8860 007:068.144 JLINK_ReadReg(XPSR)
T8860 007:068.152 - 0.008ms returns 0x41000000
T8860 007:068.160 JLINK_ReadReg(R15 (PC))
T8860 007:068.168 - 0.008ms returns 0x00001F12
T8860 007:068.178 JLINK_WriteReg(R15 (PC), 0x00001F14)
T8860 007:068.186 - 0.008ms returns 0
T8860 007:068.195 JLINK_IsHalted()
T8860 007:068.202 - 0.006ms returns TRUE
T8860 007:068.213 JLINK_STRACE_Read(..., NumItems = 0x10000)
T8860 007:068.223 - 0.009ms NumItemsRead = 0x00
T8860 007:068.234 JLINK_GoEx(MaxEmulInsts = 0, Flags = 0x01)
T8860 007:068.245   CPU_ReadMem(4 bytes @ 0xE0001000)
T8860 007:071.096 - 2.859ms
T8860 007:170.901 JLINK_IsHalted()
T8860 007:176.387 - 5.484ms returns TRUE
T8860 007:176.512 JLINK_ReadReg(XPSR)
T8860 007:176.532   CPU_ReadMem(4 bytes @ 0xE000EE08)
T8860 007:177.266 - 0.751ms returns 0x01000000
T8860 007:177.324 JLINK_ReadReg(R15 (PC))
T8860 007:177.336 - 0.011ms returns 0x0000234C
T8860 007:177.346 JLINK_ReadReg(XPSR)
T8860 007:177.353 - 0.006ms returns 0x01000000
T8860 007:177.359 JLINK_ReadReg(XPSR)
T8860 007:177.365 - 0.005ms returns 0x01000000
T8860 007:177.371 JLINK_ReadReg(R15 (PC))
T8860 007:177.376 - 0.005ms returns 0x0000234C
T8860 007:177.395 JLINK_ReadReg(XPSR)
T8860 007:177.401 - 0.006ms returns 0x01000000
T8860 007:177.407 JLINK_ReadReg(XPSR)
T8860 007:177.413 - 0.005ms returns 0x01000000
T8860 007:177.420 JLINK_ReadMem(0x0000234C, 0x1 Bytes, ...)
T8860 007:177.428    -- Read from flash cache (1 bytes @ 0x0000234C)
T8860 007:177.436   Data:  AB
T8860 007:177.444 - 0.024ms returns 0
T8860 007:177.451 JLINK_ReadReg(XPSR)
T8860 007:177.456 - 0.005ms returns 0x01000000
T8860 007:177.462 JLINK_ReadReg(R0)
T8860 007:177.468 - 0.005ms returns 0x00000001
T8860 007:177.474 JLINK_ReadReg(XPSR)
T8860 007:177.480 - 0.005ms returns 0x01000000
T8860 007:177.486 JLINK_ReadReg(R1)
T8860 007:177.491 - 0.005ms returns 0x20000C04
T8860 007:177.498 JLINK_IsHalted()
T8860 007:177.503 - 0.005ms returns TRUE
T8860 007:177.509 JLINK_ReadReg(XPSR)
T8860 007:177.515 - 0.005ms returns 0x01000000
T8860 007:177.521 JLINK_ReadReg(XPSR)
T8860 007:177.527 - 0.005ms returns 0x01000000
T8860 007:177.533 JLINK_ReadReg(R15 (PC))
T8860 007:177.538 - 0.005ms returns 0x0000234C
T8860 007:177.544 JLINK_ReadReg(XPSR)
T8860 007:177.550 - 0.005ms returns 0x01000000
T8860 007:177.556 JLINK_ReadReg(XPSR)
T8860 007:177.561 - 0.005ms returns 0x01000000
T8860 007:177.567 JLINK_ReadMem(0x0000234C, 0x1 Bytes, ...)
T8860 007:177.573    -- Read from flash cache (1 bytes @ 0x0000234C)
T8860 007:177.580   Data:  AB
T8860 007:177.587 - 0.020ms returns 0
T8860 007:177.593 JLINK_ReadReg(XPSR)
T8860 007:177.599 - 0.005ms returns 0x01000000
T8860 007:177.605 JLINK_ReadReg(R0)
T8860 007:177.610 - 0.005ms returns 0x00000001
T8860 007:177.616 JLINK_ReadReg(XPSR)
T8860 007:177.622 - 0.005ms returns 0x01000000
T8860 007:177.628 JLINK_ReadReg(R1)
T8860 007:177.633 - 0.005ms returns 0x20000C04
T8860 007:177.640 JLINK_ReadMem(0x20000C04, 0xC Bytes, ...)
T8860 007:177.650   CPU_ReadMem(64 bytes @ 0x20000C00)
T8860 007:179.134    -- Updating C cache (64 bytes @ 0x20000C00)
T8860 007:179.158    -- Read from C cache (12 bytes @ 0x20000C04)
T8860 007:179.167   Data:  36 26 00 00 04 00 00 00 03 00 00 00
T8860 007:179.174 - 1.534ms returns 0
T8860 007:179.214 JLINK_ReadMem(0x00002636, 0x3 Bytes, ...)
T8860 007:179.222    -- Read from flash cache (3 bytes @ 0x00002636)
T8860 007:179.229   Data:  3A 74 74
T8860 007:179.237 - 0.023ms returns 0
T8860 007:179.248 JLINK_WriteReg(R0, 0xFFFFFF00)
T8860 007:179.259 - 0.011ms returns 0
T8860 007:179.266 JLINK_ReadReg(XPSR)
T8860 007:179.272 - 0.006ms returns 0x01000000
T8860 007:179.278 JLINK_ReadReg(XPSR)
T8860 007:179.284 - 0.005ms returns 0x01000000
T8860 007:179.290 JLINK_ReadReg(R15 (PC))
T8860 007:179.297 - 0.006ms returns 0x0000234C
T8860 007:179.304 JLINK_WriteReg(R15 (PC), 0x0000234E)
T8860 007:179.310 - 0.006ms returns 0
T8860 007:179.316 JLINK_IsHalted()
T8860 007:179.321 - 0.005ms returns TRUE
T8860 007:179.330 JLINK_STRACE_Read(..., NumItems = 0x10000)
T8860 007:179.338 - 0.008ms NumItemsRead = 0x00
T8860 007:179.347 JLINK_GoEx(MaxEmulInsts = 0, Flags = 0x01)
T8860 007:179.356   CPU_ReadMem(4 bytes @ 0xE0001000)
T8860 007:182.277 - 2.929ms
T8860 007:279.623 JLINK_IsHalted()
T8860 007:290.159 - 10.534ms returns TRUE
T8860 007:290.324 JLINK_ReadReg(XPSR)
T8860 007:290.362   CPU_ReadMem(4 bytes @ 0xE000EE08)
T8860 007:291.435 - 1.109ms returns 0x01000000
T8860 007:291.547 JLINK_ReadReg(R15 (PC))
T8860 007:291.584 - 0.037ms returns 0x00002364
T8860 007:291.619 JLINK_ReadReg(XPSR)
T8860 007:291.841 - 0.221ms returns 0x01000000
T8860 007:291.861 JLINK_ReadReg(XPSR)
T8860 007:291.878 - 0.017ms returns 0x01000000
T8860 007:291.896 JLINK_ReadReg(R15 (PC))
T8860 007:291.917 - 0.020ms returns 0x00002364
T8860 007:291.975 JLINK_ReadReg(XPSR)
T8860 007:292.022 - 0.047ms returns 0x01000000
T8860 007:292.045 JLINK_ReadReg(XPSR)
T8860 007:292.067 - 0.021ms returns 0x01000000
T8860 007:292.091 JLINK_ReadMem(0x00002364, 0x1 Bytes, ...)
T8860 007:292.119    -- Read from flash cache (1 bytes @ 0x00002364)
T8860 007:292.142   Data:  AB
T8860 007:292.164 - 0.074ms returns 0
T8860 007:292.183 JLINK_ReadReg(XPSR)
T8860 007:292.200 - 0.016ms returns 0x01000000
T8860 007:292.218 JLINK_ReadReg(R0)
T8860 007:292.235 - 0.017ms returns 0x00000001
T8860 007:292.260 JLINK_ReadReg(XPSR)
T8860 007:292.282 - 0.021ms returns 0x01000000
T8860 007:292.298 JLINK_ReadReg(R1)
T8860 007:292.314 - 0.015ms returns 0x20000C04
T8860 007:292.332 JLINK_IsHalted()
T8860 007:292.347 - 0.014ms returns TRUE
T8860 007:292.365 JLINK_ReadReg(XPSR)
T8860 007:292.382 - 0.017ms returns 0x01000000
T8860 007:292.401 JLINK_ReadReg(XPSR)
T8860 007:292.419 - 0.017ms returns 0x01000000
T8860 007:292.437 JLINK_ReadReg(R15 (PC))
T8860 007:292.458 - 0.020ms returns 0x00002364
T8860 007:292.482 JLINK_ReadReg(XPSR)
T8860 007:292.505 - 0.022ms returns 0x01000000
T8860 007:292.530 JLINK_ReadReg(XPSR)
T8860 007:292.560 - 0.030ms returns 0x01000000
T8860 007:292.581 JLINK_ReadMem(0x00002364, 0x1 Bytes, ...)
T8860 007:292.598    -- Read from flash cache (1 bytes @ 0x00002364)
T8860 007:292.621   Data:  AB
T8860 007:292.643 - 0.062ms returns 0
T8860 007:292.662 JLINK_ReadReg(XPSR)
T8860 007:292.681 - 0.018ms returns 0x01000000
T8860 007:292.699 JLINK_ReadReg(R0)
T8860 007:292.716 - 0.017ms returns 0x00000001
T8860 007:292.737 JLINK_ReadReg(XPSR)
T8860 007:292.761 - 0.022ms returns 0x01000000
T8860 007:292.783 JLINK_ReadReg(R1)
T8860 007:292.805 - 0.021ms returns 0x20000C04
T8860 007:292.833 JLINK_ReadMem(0x20000C04, 0xC Bytes, ...)
T8860 007:292.868   CPU_ReadMem(64 bytes @ 0x20000C00)
T8860 007:295.226    -- Updating C cache (64 bytes @ 0x20000C00)
T8860 007:295.281    -- Read from C cache (12 bytes @ 0x20000C04)
T8860 007:295.311   Data:  36 26 00 00 08 00 00 00 03 00 00 00
T8860 007:295.339 - 2.505ms returns 0
T8860 007:295.495 JLINK_ReadMem(0x00002636, 0x3 Bytes, ...)
T8860 007:295.520    -- Read from flash cache (3 bytes @ 0x00002636)
T8860 007:295.545   Data:  3A 74 74
T8860 007:295.568 - 0.073ms returns 0
T8860 007:295.599 JLINK_WriteReg(R0, 0xFFFFFF00)
T8860 007:295.654 - 0.055ms returns 0
T8860 007:295.676 JLINK_ReadReg(XPSR)
T8860 007:295.696 - 0.020ms returns 0x01000000
T8860 007:295.716 JLINK_ReadReg(XPSR)
T8860 007:295.734 - 0.018ms returns 0x01000000
T8860 007:295.754 JLINK_ReadReg(R15 (PC))
T8860 007:295.771 - 0.017ms returns 0x00002364
T8860 007:295.792 JLINK_WriteReg(R15 (PC), 0x00002366)
T8860 007:295.810 - 0.018ms returns 0
T8860 007:295.832 JLINK_IsHalted()
T8860 007:295.849 - 0.017ms returns TRUE
T8860 007:295.872 JLINK_STRACE_Read(..., NumItems = 0x10000)
T8860 007:295.892 - 0.020ms NumItemsRead = 0x00
T8860 007:295.916 JLINK_GoEx(MaxEmulInsts = 0, Flags = 0x01)
T8860 007:295.944   CPU_ReadMem(4 bytes @ 0xE0001000)
T8860 007:299.778 - 3.860ms
T8860 007:404.691 JLINK_IsHalted()
T8860 007:410.795 - 6.103ms returns TRUE
T8860 007:410.880 JLINK_ReadReg(XPSR)
T8860 007:410.914   CPU_ReadMem(4 bytes @ 0xE000EE08)
T8860 007:412.013 - 1.131ms returns 0x01000000
T8860 007:412.112 JLINK_ReadReg(R15 (PC))
T8860 007:412.137 - 0.024ms returns 0x000020EC
T8860 007:412.157 JLINK_ReadReg(XPSR)
T8860 007:412.170 - 0.012ms returns 0x01000000
T8860 007:412.183 JLINK_ReadReg(XPSR)
T8860 007:412.195 - 0.011ms returns 0x01000000
T8860 007:412.208 JLINK_ReadReg(R15 (PC))
T8860 007:412.243 - 0.035ms returns 0x000020EC
T8860 007:412.257 JLINK_ReadReg(XPSR)
T8860 007:412.269 - 0.011ms returns 0x01000000
T8860 007:412.281 JLINK_ReadReg(XPSR)
T8860 007:412.301 - 0.019ms returns 0x01000000
T8860 007:412.406 JLINK_ReadMem(0x000020EC, 0x1 Bytes, ...)
T8860 007:412.421    -- Read from flash cache (1 bytes @ 0x000020EC)
T8860 007:412.436   Data:  AB
T8860 007:412.451 - 0.045ms returns 0
T8860 007:412.463 JLINK_ReadReg(XPSR)
T8860 007:412.475 - 0.011ms returns 0x01000000
T8860 007:412.487 JLINK_ReadReg(R0)
T8860 007:412.498 - 0.011ms returns 0x0000000C
T8860 007:412.510 JLINK_ReadReg(XPSR)
T8860 007:412.521 - 0.010ms returns 0x01000000
T8860 007:412.532 JLINK_ReadReg(R1)
T8860 007:412.543 - 0.010ms returns 0x200007A4
T8860 007:412.559 JLINK_IsHalted()
T8860 007:412.572 - 0.013ms returns TRUE
T8860 007:412.584 JLINK_ReadReg(XPSR)
T8860 007:412.595 - 0.011ms returns 0x01000000
T8860 007:412.607 JLINK_ReadReg(XPSR)
T8860 007:412.618 - 0.010ms returns 0x01000000
T8860 007:412.629 JLINK_ReadReg(R15 (PC))
T8860 007:412.640 - 0.010ms returns 0x000020EC
T8860 007:412.652 JLINK_ReadReg(XPSR)
T8860 007:412.663 - 0.010ms returns 0x01000000
T8860 007:412.675 JLINK_ReadReg(XPSR)
T8860 007:412.685 - 0.010ms returns 0x01000000
T8860 007:412.697 JLINK_ReadMem(0x000020EC, 0x1 Bytes, ...)
T8860 007:412.707    -- Read from flash cache (1 bytes @ 0x000020EC)
T8860 007:412.721   Data:  AB
T8860 007:412.736 - 0.038ms returns 0
T8860 007:412.747 JLINK_ReadReg(XPSR)
T8860 007:412.758 - 0.010ms returns 0x01000000
T8860 007:412.769 JLINK_ReadReg(R0)
T8860 007:412.780 - 0.010ms returns 0x0000000C
T8860 007:412.792 JLINK_ReadReg(XPSR)
T8860 007:412.802 - 0.010ms returns 0x01000000
T8860 007:412.814 JLINK_ReadReg(R1)
T8860 007:412.825 - 0.010ms returns 0x200007A4
T8860 007:412.837 JLINK_ReadMem(0x200007A4, 0x4 Bytes, ...)
T8860 007:412.854   CPU_ReadMem(64 bytes @ 0x20000780)
T8860 007:414.896    -- Updating C cache (64 bytes @ 0x20000780)
T8860 007:414.934    -- Read from C cache (4 bytes @ 0x200007A4)
T8860 007:414.950   Data:  00 FF FF FF
T8860 007:414.965 - 2.127ms returns 0
T8860 007:415.074 JLINK_WriteReg(R0, 0x00000000)
T8860 007:415.097 - 0.023ms returns 0
T8860 007:415.111 JLINK_ReadReg(XPSR)
T8860 007:415.123 - 0.012ms returns 0x01000000
T8860 007:415.135 JLINK_ReadReg(XPSR)
T8860 007:415.147 - 0.011ms returns 0x01000000
T8860 007:415.158 JLINK_ReadReg(R15 (PC))
T8860 007:415.169 - 0.011ms returns 0x000020EC
T8860 007:415.182 JLINK_WriteReg(R15 (PC), 0x000020EE)
T8860 007:415.194 - 0.011ms returns 0
T8860 007:415.206 JLINK_IsHalted()
T8860 007:415.216 - 0.010ms returns TRUE
T8860 007:415.231 JLINK_STRACE_Read(..., NumItems = 0x10000)
T8860 007:415.244 - 0.013ms NumItemsRead = 0x00
T8860 007:415.259 JLINK_GoEx(MaxEmulInsts = 0, Flags = 0x01)
T8860 007:415.277   CPU_ReadMem(4 bytes @ 0xE0001000)
T8860 007:419.272 - 4.011ms
T8860 007:514.061 JLINK_IsHalted()
T8860 007:520.076 - 6.013ms returns TRUE
T8860 007:520.217 JLINK_ReadReg(XPSR)
T8860 007:520.246   CPU_ReadMem(4 bytes @ 0xE000EE08)
T8860 007:521.252 - 1.033ms returns 0x01000000
T8860 007:521.342 JLINK_ReadReg(R15 (PC))
T8860 007:521.368 - 0.026ms returns 0x0000200C
T8860 007:521.398 JLINK_ReadReg(XPSR)
T8860 007:521.416 - 0.018ms returns 0x01000000
T8860 007:521.439 JLINK_ReadReg(XPSR)
T8860 007:521.453 - 0.014ms returns 0x01000000
T8860 007:521.466 JLINK_ReadReg(R15 (PC))
T8860 007:521.478 - 0.011ms returns 0x0000200C
T8860 007:521.491 JLINK_ReadReg(XPSR)
T8860 007:521.503 - 0.011ms returns 0x01000000
T8860 007:521.515 JLINK_ReadReg(XPSR)
T8860 007:521.527 - 0.011ms returns 0x01000000
T8860 007:521.542 JLINK_ReadMem(0x0000200C, 0x1 Bytes, ...)
T8860 007:521.559    -- Read from flash cache (1 bytes @ 0x0000200C)
T8860 007:521.576   Data:  AB
T8860 007:521.594 - 0.052ms returns 0
T8860 007:521.615 JLINK_ReadReg(XPSR)
T8860 007:521.629 - 0.013ms returns 0x01000000
T8860 007:521.642 JLINK_ReadReg(R0)
T8860 007:521.655 - 0.012ms returns 0x00000005
T8860 007:521.669 JLINK_ReadReg(XPSR)
T8860 007:521.681 - 0.012ms returns 0x01000000
T8860 007:521.694 JLINK_ReadReg(R1)
T8860 007:521.707 - 0.012ms returns 0x20000B74
T8860 007:521.734 JLINK_IsHalted()
T8860 007:521.746 - 0.011ms returns TRUE
T8860 007:521.865 JLINK_ReadReg(XPSR)
T8860 007:521.879 - 0.013ms returns 0x01000000
T8860 007:521.892 JLINK_ReadReg(XPSR)
T8860 007:521.904 - 0.012ms returns 0x01000000
T8860 007:521.917 JLINK_ReadReg(R15 (PC))
T8860 007:521.930 - 0.012ms returns 0x0000200C
T8860 007:521.943 JLINK_ReadReg(XPSR)
T8860 007:521.956 - 0.012ms returns 0x01000000
T8860 007:521.969 JLINK_ReadReg(XPSR)
T8860 007:521.981 - 0.012ms returns 0x01000000
T8860 007:521.995 JLINK_ReadMem(0x0000200C, 0x1 Bytes, ...)
T8860 007:522.007    -- Read from flash cache (1 bytes @ 0x0000200C)
T8860 007:522.023   Data:  AB
T8860 007:522.039 - 0.044ms returns 0
T8860 007:522.052 JLINK_ReadReg(XPSR)
T8860 007:522.065 - 0.012ms returns 0x01000000
T8860 007:522.078 JLINK_ReadReg(R0)
T8860 007:522.090 - 0.012ms returns 0x00000005
T8860 007:522.104 JLINK_ReadReg(XPSR)
T8860 007:522.116 - 0.012ms returns 0x01000000
T8860 007:522.129 JLINK_ReadReg(R1)
T8860 007:522.141 - 0.012ms returns 0x20000B74
T8860 007:522.156 JLINK_ReadMem(0x20000B74, 0xC Bytes, ...)
T8860 007:522.175   CPU_ReadMem(64 bytes @ 0x20000B40)
T8860 007:524.044    -- Updating C cache (64 bytes @ 0x20000B40)
T8860 007:524.079    -- Read from C cache (12 bytes @ 0x20000B74)
T8860 007:524.096   Data:  00 FF FF FF F3 06 00 20 01 00 00 00
T8860 007:524.111 - 1.954ms returns 0
T8860 007:524.158 JLINK_ReadMem(0x200006F3, 0x1 Bytes, ...)
T8860 007:524.181   CPU_ReadMem(64 bytes @ 0x200006C0)
T8860 007:526.094    -- Updating C cache (64 bytes @ 0x200006C0)
T8860 007:526.160    -- Read from C cache (1 bytes @ 0x200006F3)
T8860 007:526.180   Data:  45
T8860 007:526.202 - 2.044ms returns 0
T8860 007:526.288 JLINK_WriteReg(R0, 0x00000000)
T8860 007:526.317 - 0.029ms returns 0
T8860 007:526.335 JLINK_ReadReg(XPSR)
T8860 007:526.354 - 0.018ms returns 0x01000000
T8860 007:526.374 JLINK_ReadReg(XPSR)
T8860 007:526.391 - 0.016ms returns 0x01000000
T8860 007:526.410 JLINK_ReadReg(R15 (PC))
T8860 007:526.427 - 0.016ms returns 0x0000200C
T8860 007:526.447 JLINK_WriteReg(R15 (PC), 0x0000200E)
T8860 007:526.463 - 0.017ms returns 0
T8860 007:526.481 JLINK_IsHalted()
T8860 007:526.497 - 0.015ms returns TRUE
T8860 007:526.518 JLINK_STRACE_Read(..., NumItems = 0x10000)
T8860 007:526.538 - 0.020ms NumItemsRead = 0x00
T8860 007:526.561 JLINK_GoEx(MaxEmulInsts = 0, Flags = 0x01)
T8860 007:526.587   CPU_ReadMem(4 bytes @ 0xE0001000)
T8860 007:530.036 - 3.474ms
T8860 007:639.991 JLINK_IsHalted()
T8860 007:646.657 - 6.664ms returns TRUE
T8860 007:646.779 JLINK_ReadReg(XPSR)
T8860 007:646.810   CPU_ReadMem(4 bytes @ 0xE000EE08)
T8860 007:647.801 - 1.020ms returns 0x01000000
T8860 007:647.876 JLINK_ReadReg(R15 (PC))
T8860 007:647.903 - 0.026ms returns 0x0000200C
T8860 007:647.925 JLINK_ReadReg(XPSR)
T8860 007:647.937 - 0.012ms returns 0x01000000
T8860 007:647.949 JLINK_ReadReg(XPSR)
T8860 007:647.961 - 0.011ms returns 0x01000000
T8860 007:647.973 JLINK_ReadReg(R15 (PC))
T8860 007:647.984 - 0.011ms returns 0x0000200C
T8860 007:647.996 JLINK_ReadReg(XPSR)
T8860 007:648.007 - 0.010ms returns 0x01000000
T8860 007:648.019 JLINK_ReadReg(XPSR)
T8860 007:648.030 - 0.010ms returns 0x01000000
T8860 007:648.047 JLINK_ReadMem(0x0000200C, 0x1 Bytes, ...)
T8860 007:648.062    -- Read from flash cache (1 bytes @ 0x0000200C)
T8860 007:648.077   Data:  AB
T8860 007:648.092 - 0.046ms returns 0
T8860 007:648.104 JLINK_ReadReg(XPSR)
T8860 007:648.115 - 0.011ms returns 0x01000000
T8860 007:648.127 JLINK_ReadReg(R0)
T8860 007:648.138 - 0.011ms returns 0x00000005
T8860 007:648.150 JLINK_ReadReg(XPSR)
T8860 007:648.166 - 0.016ms returns 0x01000000
T8860 007:648.178 JLINK_ReadReg(R1)
T8860 007:648.189 - 0.010ms returns 0x20000B74
T8860 007:648.226 JLINK_IsHalted()
T8860 007:648.237 - 0.010ms returns TRUE
T8860 007:648.249 JLINK_ReadReg(XPSR)
T8860 007:648.261 - 0.011ms returns 0x01000000
T8860 007:648.273 JLINK_ReadReg(XPSR)
T8860 007:648.284 - 0.010ms returns 0x01000000
T8860 007:648.295 JLINK_ReadReg(R15 (PC))
T8860 007:648.306 - 0.010ms returns 0x0000200C
T8860 007:648.393 JLINK_ReadReg(XPSR)
T8860 007:648.409 - 0.015ms returns 0x01000000
T8860 007:648.420 JLINK_ReadReg(XPSR)
T8860 007:648.431 - 0.010ms returns 0x01000000
T8860 007:648.443 JLINK_ReadMem(0x0000200C, 0x1 Bytes, ...)
T8860 007:648.454    -- Read from flash cache (1 bytes @ 0x0000200C)
T8860 007:648.468   Data:  AB
T8860 007:648.482 - 0.039ms returns 0
T8860 007:648.494 JLINK_ReadReg(XPSR)
T8860 007:648.505 - 0.010ms returns 0x01000000
T8860 007:648.516 JLINK_ReadReg(R0)
T8860 007:648.527 - 0.011ms returns 0x00000005
T8860 007:648.539 JLINK_ReadReg(XPSR)
T8860 007:648.550 - 0.010ms returns 0x01000000
T8860 007:648.561 JLINK_ReadReg(R1)
T8860 007:648.574 - 0.012ms returns 0x20000B74
T8860 007:648.586 JLINK_ReadMem(0x20000B74, 0xC Bytes, ...)
T8860 007:648.603   CPU_ReadMem(64 bytes @ 0x20000B40)
T8860 007:650.350    -- Updating C cache (64 bytes @ 0x20000B40)
T8860 007:650.389    -- Read from C cache (12 bytes @ 0x20000B74)
T8860 007:650.409   Data:  00 FF FF FF F3 06 00 20 01 00 00 00
T8860 007:650.429 - 1.842ms returns 0
T8860 007:650.508 JLINK_ReadMem(0x200006F3, 0x1 Bytes, ...)
T8860 007:650.537   CPU_ReadMem(64 bytes @ 0x200006C0)
T8860 007:652.402    -- Updating C cache (64 bytes @ 0x200006C0)
T8860 007:652.438    -- Read from C cache (1 bytes @ 0x200006F3)
T8860 007:652.454   Data:  6E
T8860 007:652.485 - 1.976ms returns 0
T8860 007:652.589 JLINK_WriteReg(R0, 0x00000000)
T8860 007:652.611 - 0.022ms returns 0
T8860 007:652.625 JLINK_ReadReg(XPSR)
T8860 007:652.638 - 0.013ms returns 0x01000000
T8860 007:652.662 JLINK_ReadReg(XPSR)
T8860 007:652.673 - 0.011ms returns 0x01000000
T8860 007:652.685 JLINK_ReadReg(R15 (PC))
T8860 007:652.697 - 0.011ms returns 0x0000200C
T8860 007:652.711 JLINK_WriteReg(R15 (PC), 0x0000200E)
T8860 007:652.723 - 0.011ms returns 0
